
T301C 000:315 SEGGER J-Link V4.98e Log File (0001ms, 0274ms total)
T301C 000:315 DLL Compiled: May  5 2015 11:00:52 (0001ms, 0274ms total)
T301C 000:315 Logging started @ 2026-05-12 11:56 (0001ms, 0274ms total)
T301C 000:316 JLINK_SetWarnOutHandler(...) (0000ms, 0274ms total)
T301C 000:316 JLINK_OpenEx(...)
Firmware: J-Link ARM V8 compiled Nov 28 2014 13:44:46
Hardware: V8.00
S/N: 788529859
Feature(s): RDI,FlashDL,FlashBP,JFlash,GDB  returns O.K. (0272ms, 0546ms total)
T301C 000:588 JLINK_SetErrorOutHandler(...) (0000ms, 0546ms total)
T301C 000:588 JLINK_ExecCommand("ProjectFile = "D:\PRG\davicom\mh2030_demo\ModuleDemo\RCC\RCC_HSIConfig\USER\JLinkSettings.ini"", ...)Device "UNSPECIFIED" selected.  returns 0x00 (0002ms, 0548ms total)
T301C 000:590 JLINK_ExecCommand("Device = ARMCM0", ...)Device "UNSPECIFIED" selected.  returns 0x00 (0001ms, 0549ms total)
T301C 000:591 JLINK_ExecCommand("DisableConnectionTimeout", ...)  returns 0x01 (0000ms, 0549ms total)
T301C 000:591 JLINK_GetHardwareVersion()  returns 0x13880 (0000ms, 0549ms total)
T301C 000:591 JLINK_GetDLLVersion()  returns 49805 (0000ms, 0549ms total)
T301C 000:591 JLINK_GetFirmwareString(...) (0000ms, 0549ms total)
T301C 000:592 JLINK_GetDLLVersion()  returns 49805 (0000ms, 0549ms total)
T301C 000:592 JLINK_GetCompileDateTime() (0000ms, 0549ms total)
T301C 000:592 JLINK_GetFirmwareString(...) (0000ms, 0549ms total)
T301C 000:593 JLINK_GetHardwareVersion()  returns 0x13880 (0000ms, 0549ms total)
T301C 000:594 JLINK_TIF_Select(JLINKARM_TIF_SWD)  returns 0x00 (0003ms, 0552ms total)
T301C 000:597 JLINK_SetSpeed(5000) (0000ms, 0552ms total)
T301C 000:597 JLINK_GetId() >0x108 TIF>Found SWD-DP with ID 0x0BB11477 >0x0D TIF> >0x21 TIF> >0x0D TIF> >0x28 TIF> >0x0D TIF> >0x28 TIF> >0x0D TIF> >0x21 TIF> >0x0D TIF> >0x28 TIF> >0x0D TIF> >0x21 TIF> >0x0D TIF> >0x21 TIF> >0x0D TIF> >0x21 TIF> >0x0D TIF> >0x21 TIF> >0x0D TIF> >0x28 TIF> >0x0D TIF> >0x28 TIF> >0x0D TIF> >0x21 TIF> >0x0D TIF> >0x28 TIF> >0x0D TIF> >0x28 TIF> >0x0D TIF> >0x28 TIF> >0x0D TIF> >0x21 TIF> >0x0D TIF> >0x21 TIF> >0x0D TIF> >0x28 TIF> >0x0D TIF> >0x21 TIF> >0x0D TIF>
 >0x21 TIF>Found Cortex-M0 r0p0, Little endian. -- CPU_WriteMem(4 bytes @ 0xE0002000) -- CPU_ReadMem(4 bytes @ 0xE000EDF0) -- CPU_ReadMem(4 bytes @ 0xE0002000)FPUnit: 4 code (BP) slots and 0 literal slots -- CPU_ReadMem(4 bytes @ 0xE000EDFC) -- CPU_ReadMem(4 bytes @ 0xE0001000) -- CPU_WriteMem(4 bytes @ 0xE0001000)CoreSight components:ROMTbl 0 @ E00FF000 -- CPU_ReadMem(16 bytes @ 0xE00FF000) -- CPU_ReadMem(16 bytes @ 0xE000EFF0) -- CPU_ReadMem(16 bytes @ 0xE000EFE0)
ROMTbl 0 [0]: FFF0F000, CID: B105E00D, PID: 000BB008 SCS -- CPU_ReadMem(16 bytes @ 0xE0001FF0) -- CPU_ReadMem(16 bytes @ 0xE0001FE0)ROMTbl 0 [1]: FFF02000, CID: B105E00D, PID: 000BB00A DWT -- CPU_ReadMem(16 bytes @ 0xE0002FF0) -- CPU_ReadMem(16 bytes @ 0xE0002FE0)ROMTbl 0 [2]: FFF03000, CID: B105E00D, PID: 000BB00B FPB >0x0D TIF> >0x21 TIF>  returns 0x0BB11477 (0057ms, 0609ms total)
T301C 000:654 JLINK_GetDLLVersion()  returns 49805 (0000ms, 0609ms total)
T301C 000:654 JLINK_CORE_GetFound()  returns 0x60000FF (0000ms, 0609ms total)
T301C 000:654 JLINK_GetDebugInfo(0x100) -- Value=0xE00FF003  returns 0x00 (0000ms, 0609ms total)
T301C 000:654 JLINK_ReadMem (0xE00FF000, 0x0020 Bytes, ...) -- CPU is running -- CPU_ReadMem(32 bytes @ 0xE00FF000) - Data: 03 F0 F0 FF 03 20 F0 FF 03 30 F0 FF 00 00 00 00 ...  returns 0x00 (0001ms, 0610ms total)
T301C 000:655 JLINK_ReadMem (0xE000EFF0, 0x0010 Bytes, ...) -- CPU is running -- CPU_ReadMem(16 bytes @ 0xE000EFF0) - Data: 0D 00 00 00 E0 00 00 00 05 00 00 00 B1 00 00 00  returns 0x00 (0001ms, 0611ms total)
T301C 000:656 JLINK_ReadMem (0xE000EFD0, 0x0020 Bytes, ...) -- CPU is running -- CPU_ReadMem(32 bytes @ 0xE000EFD0) - Data: 04 00 00 00 00 00 00 00 00 00 00 00 00 00 00 00 ...  returns 0x00 (0001ms, 0612ms total)
T301C 000:657 JLINK_ReadMem (0xE0001FF0, 0x0010 Bytes, ...) -- CPU is running -- CPU_ReadMem(16 bytes @ 0xE0001FF0) - Data: 0D 00 00 00 E0 00 00 00 05 00 00 00 B1 00 00 00  returns 0x00 (0001ms, 0613ms total)
T301C 000:658 JLINK_ReadMem (0xE0001FD0, 0x0020 Bytes, ...) -- CPU is running -- CPU_ReadMem(32 bytes @ 0xE0001FD0) - Data: 04 00 00 00 00 00 00 00 00 00 00 00 00 00 00 00 ...  returns 0x00 (0001ms, 0614ms total)
T301C 000:659 JLINK_ReadMem (0xE0002FF0, 0x0010 Bytes, ...) -- CPU is running -- CPU_ReadMem(16 bytes @ 0xE0002FF0) - Data: 0D 00 00 00 E0 00 00 00 05 00 00 00 B1 00 00 00  returns 0x00 (0001ms, 0615ms total)
T301C 000:660 JLINK_ReadMem (0xE0002FD0, 0x0020 Bytes, ...) -- CPU is running -- CPU_ReadMem(32 bytes @ 0xE0002FD0) - Data: 04 00 00 00 00 00 00 00 00 00 00 00 00 00 00 00 ...  returns 0x00 (0001ms, 0616ms total)
T301C 000:661 JLINK_ReadMemU32(0xE000ED00, 0x0001 Items, ...) -- CPU is running -- CPU_ReadMem(4 bytes @ 0xE000ED00) - Data: 00 C2 0C 41  returns 0x01 (0001ms, 0617ms total)
T301C 000:662 JLINK_SetResetType(JLINKARM_RESET_TYPE_NORMAL)  returns JLINKARM_RESET_TYPE_NORMAL (0000ms, 0617ms total)
T301C 000:662 JLINK_Reset() -- CPU is running -- CPU_WriteMem(4 bytes @ 0xE000EDF0) -- CPU is running -- CPU_WriteMem(4 bytes @ 0xE000EDFC) >0x35 TIF> -- CPU is running -- CPU_WriteMem(4 bytes @ 0xE000ED0C) -- CPU is running -- CPU_ReadMem(4 bytes @ 0xE000EDF0) -- CPU is running -- CPU_ReadMem(4 bytes @ 0xE000EDF0) -- CPU is running -- CPU_WriteMem(4 bytes @ 0xE000EDF0) -- CPU is running -- CPU_WriteMem(4 bytes @ 0xE000EDFC) -- CPU is running -- CPU_ReadMem(4 bytes @ 0xE000EDF0)
 -- CPU_WriteMem(4 bytes @ 0xE0002000) -- CPU_ReadMem(4 bytes @ 0xE000EDFC) -- CPU_ReadMem(4 bytes @ 0xE0001000) -- CPU_WriteMem(4 bytes @ 0xE0001000) (0023ms, 0640ms total)
T301C 000:685 JLINK_ReadReg(R15 (PC))  returns 0x080005B8 (0000ms, 0640ms total)
T301C 000:685 JLINK_ReadReg(XPSR)  returns 0xC1000000 (0000ms, 0640ms total)
T301C 000:685 JLINK_Halt()  returns 0x00 (0000ms, 0640ms total)
T301C 000:685 JLINK_IsHalted()  returns TRUE (0000ms, 0640ms total)
T301C 000:685 JLINK_ReadMemU32(0xE000EDF0, 0x0001 Items, ...) -- CPU_ReadMem(4 bytes @ 0xE000EDF0) - Data: 03 00 03 00  returns 0x01 (0001ms, 0641ms total)
T301C 000:686 JLINK_WriteU32(0xE000EDF0, 0xA05F0003) -- CPU_WriteMem(4 bytes @ 0xE000EDF0)  returns 0x00 (0000ms, 0641ms total)
T301C 000:686 JLINK_WriteU32(0xE000EDFC, 0x01000000) -- CPU_WriteMem(4 bytes @ 0xE000EDFC)  returns 0x00 (0001ms, 0642ms total)
T301C 000:688 JLINK_GetHWStatus(...)  returns 0x00 (0001ms, 0643ms total)
T301C 000:689 JLINK_GetNumBPUnits(Type = 0xFFFFFF00)  returns 0x04 (0000ms, 0643ms total)
T301C 000:689 JLINK_GetNumBPUnits(Type = 0xF0)  returns 0x2000 (0000ms, 0643ms total)
T301C 000:689 JLINK_GetNumWPUnits()  returns 0x02 (0000ms, 0643ms total)
T301C 000:690 JLINK_GetSpeed()  returns 0xFA0 (0000ms, 0643ms total)
T301C 000:690 JLINK_ReadMemU32(0xE000E004, 0x0001 Items, ...) -- CPU_ReadMem(4 bytes @ 0xE000E004) - Data: 00 00 00 00  returns 0x01 (0001ms, 0644ms total)
T301C 000:691 JLINK_ReadReg(R15 (PC))  returns 0x080005B8 (0000ms, 0644ms total)
T301C 000:691 JLINK_ReadReg(XPSR)  returns 0xC1000000 (0000ms, 0644ms total)
T301C 000:775 JLINK_SetResetType(JLINKARM_RESET_TYPE_NORMAL)  returns JLINKARM_RESET_TYPE_NORMAL (0000ms, 0644ms total)
T301C 000:775 JLINK_Reset() -- CPU_WriteMem(4 bytes @ 0xE000EDF0) -- CPU_WriteMem(4 bytes @ 0xE000EDFC) >0x35 TIF> -- CPU_WriteMem(4 bytes @ 0xE000ED0C) -- CPU_ReadMem(4 bytes @ 0xE000EDF0) -- CPU_ReadMem(4 bytes @ 0xE000EDF0) -- CPU_WriteMem(4 bytes @ 0xE000EDF0) -- CPU_WriteMem(4 bytes @ 0xE000EDFC) -- CPU is running -- CPU_ReadMem(4 bytes @ 0xE000EDF0) -- CPU_WriteMem(4 bytes @ 0xE0002000) -- CPU_ReadMem(4 bytes @ 0xE000EDFC) -- CPU_ReadMem(4 bytes @ 0xE0001000) -- CPU_WriteMem(4 bytes @ 0xE0001000)
 (0023ms, 0667ms total)
T301C 000:798 JLINK_ReadReg(R15 (PC))  returns 0x080005B8 (0000ms, 0667ms total)
T301C 000:798 JLINK_ReadReg(XPSR)  returns 0xC1000000 (0000ms, 0667ms total)
T301C 001:041 JLINK_ReadMem (0x080004B8, 0x003C Bytes, ...) -- CPU_ReadMem(60 bytes @ 0x080004B8) - Data: 02 21 08 43 04 49 48 60 00 BF 03 48 40 68 0C 21 ...  returns 0x00 (0002ms, 0669ms total)
T301C 001:043 JLINK_ReadMem (0x080004F4, 0x003C Bytes, ...) -- CPU_ReadMem(60 bytes @ 0x080004F4) - Data: C0 43 00 F0 CC FF 2A 49 2A 48 00 68 01 F0 D2 FA ...  returns 0x00 (0002ms, 0671ms total)
T301C 001:045 JLINK_ReadMem (0x08000530, 0x003C Bytes, ...) -- CPU_ReadMem(60 bytes @ 0x08000530) - Data: 20 4B 1A 61 00 BF 1F 4A 10 69 C2 07 D2 0F 00 2A ...  returns 0x00 (0001ms, 0672ms total)
T301C 001:046 JLINK_ReadMem (0x0800056C, 0x003C Bytes, ...) -- CPU_ReadMem(60 bytes @ 0x0800056C) - Data: 9A 61 1A 46 12 69 01 23 1A 43 0F 4B 1A 61 00 BF ...  returns 0x00 (0001ms, 0673ms total)
T301C 001:048 JLINK_ReadMem (0x080005B6, 0x0002 Bytes, ...) -- CPU_ReadMem(2 bytes @ 0x080005B6) - Data: 00 E0  returns 0x00 (0000ms, 0673ms total)
T301C 001:048 JLINK_ReadMem (0x080005B8, 0x003C Bytes, ...) -- CPU_ReadMem(60 bytes @ 0x080005B8) - Data: 04 48 80 47 04 48 00 47 FE E7 FE E7 FE E7 FE E7 ...  returns 0x00 (0002ms, 0675ms total)
T301C 002:581 JLINK_ReadMem (0x00000000, 0x0078 Bytes, ...) -- CPU_ReadMem(120 bytes @ 0x00000000) - Data: 50 04 00 20 B9 05 00 08 F5 02 00 08 F7 02 00 08 ...  returns 0x00 (0002ms, 0677ms total)
T0DC4 003:958 JLINK_SetBPEx(Addr = 0x080001CA, Type = 0xFFFFFFF2)  returns 0x00000001 (0001ms, 0678ms total)
T0DC4 003:959 JLINK_Go() -- CPU_WriteMem(4 bytes @ 0xE0002000) -- CPU_ReadMem(4 bytes @ 0xE0001000) -- CPU_WriteMem(4 bytes @ 0xE0001000) -- CPU_WriteMem(4 bytes @ 0xE0002008) -- CPU_WriteMem(4 bytes @ 0xE000200C) -- CPU_WriteMem(4 bytes @ 0xE0002010) -- CPU_WriteMem(4 bytes @ 0xE0002014) -- CPU_WriteMem(4 bytes @ 0xE0001004) (0007ms, 0685ms total)
T0DC4 004:067 JLINK_IsHalted()  returns TRUE (0003ms, 0688ms total)
T0DC4 004:070 JLINK_Halt()  returns 0x00 (0000ms, 0685ms total)
T0DC4 004:070 JLINK_IsHalted()  returns TRUE (0000ms, 0685ms total)
T0DC4 004:070 JLINK_IsHalted()  returns TRUE (0000ms, 0685ms total)
T0DC4 004:070 JLINK_IsHalted()  returns TRUE (0000ms, 0685ms total)
T0DC4 004:070 JLINK_ReadReg(R15 (PC))  returns 0x080001CA (0000ms, 0685ms total)
T0DC4 004:070 JLINK_ReadReg(XPSR)  returns 0x61000000 (0000ms, 0685ms total)
T0DC4 004:070 JLINK_ClrBPEx(BPHandle = 0x00000001)  returns 0x00 (0000ms, 0685ms total)
T0DC4 004:070 JLINK_ReadMemU32(0xE000ED30, 0x0001 Items, ...) -- CPU_ReadMem(4 bytes @ 0xE000ED30) - Data: 03 00 00 00  returns 0x01 (0001ms, 0686ms total)
T0DC4 004:071 JLINK_ReadMemU32(0xE0001028, 0x0001 Items, ...) -- CPU_ReadMem(4 bytes @ 0xE0001028) - Data: 00 00 00 00  returns 0x01 (0001ms, 0687ms total)
T0DC4 004:072 JLINK_ReadMemU32(0xE0001038, 0x0001 Items, ...) -- CPU_ReadMem(4 bytes @ 0xE0001038) - Data: 00 00 00 00  returns 0x01 (0001ms, 0688ms total)
T0DC4 004:073 JLINK_ReadReg(R0)  returns 0x080001CB (0000ms, 0688ms total)
T0DC4 004:073 JLINK_ReadReg(R1)  returns 0x20000450 (0000ms, 0688ms total)
T0DC4 004:073 JLINK_ReadReg(R2)  returns 0x00000000 (0000ms, 0688ms total)
T0DC4 004:073 JLINK_ReadReg(R3)  returns 0x0800219F (0000ms, 0688ms total)
T0DC4 004:073 JLINK_ReadReg(R4)  returns 0x08002A5C (0000ms, 0688ms total)
T0DC4 004:073 JLINK_ReadReg(R5)  returns 0x00000001 (0000ms, 0688ms total)
T0DC4 004:073 JLINK_ReadReg(R6)  returns 0x08002A5C (0000ms, 0688ms total)
T0DC4 004:073 JLINK_ReadReg(R7)  returns 0xFFFFFFFF (0000ms, 0688ms total)
T0DC4 004:073 JLINK_ReadReg(R8)  returns 0xFFFFFFFF (0000ms, 0688ms total)
T0DC4 004:073 JLINK_ReadReg(R9)  returns 0xFFFFFFFF (0000ms, 0688ms total)
T0DC4 004:073 JLINK_ReadReg(R10)  returns 0xFFFFFFFF (0000ms, 0688ms total)
T0DC4 004:073 JLINK_ReadReg(R11)  returns 0xFFFFFFFF (0001ms, 0689ms total)
T0DC4 004:074 JLINK_ReadReg(R12)  returns 0xFFFFFFFF (0000ms, 0689ms total)
T0DC4 004:074 JLINK_ReadReg(R13 (SP))  returns 0x20000450 (0000ms, 0689ms total)
T0DC4 004:074 JLINK_ReadReg(R14)  returns 0x08002011 (0000ms, 0689ms total)
T0DC4 004:074 JLINK_ReadReg(R15 (PC))  returns 0x080001CA (0000ms, 0689ms total)
T0DC4 004:074 JLINK_ReadReg(XPSR)  returns 0x61000000 (0000ms, 0689ms total)
T0DC4 004:074 JLINK_ReadReg(MSP)  returns 0x20000450 (0000ms, 0689ms total)
T0DC4 004:074 JLINK_ReadReg(PSP)  returns 0xFFFFFFFC (0000ms, 0689ms total)
T0DC4 004:074 JLINK_ReadReg(CFBP)  returns 0x00000000 (0000ms, 0689ms total)
T301C 004:097 JLINK_ReadMem (0x080001C8, 0x003C Bytes, ...) -- CPU_ReadMem(128 bytes @ 0x080001C0) -- Updating DA cache (128 bytes @ 0x080001C0) -- Read from DA cache (60 bytes @ 0x080001C8) - Data: 10 BD 88 B0 FF F7 CE FF 00 F0 8E F9 E1 20 40 02 ...  returns 0x00 (0003ms, 0692ms total)
T0DC4 013:761 JLINK_Step() -- Read from DA cache (2 bytes @ 0x080001CA) -- CPU_ReadMem(4 bytes @ 0xE0001004) -- Simulated  returns 0x00 (0003ms, 0695ms total)
T0DC4 013:764 JLINK_ReadReg(R15 (PC))  returns 0x080001CC (0000ms, 0695ms total)
T0DC4 013:764 JLINK_ReadReg(XPSR)  returns 0x61000000 (0000ms, 0695ms total)
T0DC4 013:764 JLINK_ReadReg(R0)  returns 0x080001CB (0000ms, 0695ms total)
T0DC4 013:764 JLINK_ReadReg(R1)  returns 0x20000450 (0000ms, 0695ms total)
T0DC4 013:764 JLINK_ReadReg(R2)  returns 0x00000000 (0000ms, 0695ms total)
T0DC4 013:764 JLINK_ReadReg(R3)  returns 0x0800219F (0000ms, 0695ms total)
T0DC4 013:764 JLINK_ReadReg(R4)  returns 0x08002A5C (0000ms, 0695ms total)
T0DC4 013:764 JLINK_ReadReg(R5)  returns 0x00000001 (0000ms, 0695ms total)
T0DC4 013:764 JLINK_ReadReg(R6)  returns 0x08002A5C (0000ms, 0695ms total)
T0DC4 013:764 JLINK_ReadReg(R7)  returns 0xFFFFFFFF (0000ms, 0695ms total)
T0DC4 013:764 JLINK_ReadReg(R8)  returns 0xFFFFFFFF (0000ms, 0695ms total)
T0DC4 013:764 JLINK_ReadReg(R9)  returns 0xFFFFFFFF (0000ms, 0695ms total)
T0DC4 013:764 JLINK_ReadReg(R10)  returns 0xFFFFFFFF (0000ms, 0695ms total)
T0DC4 013:764 JLINK_ReadReg(R11)  returns 0xFFFFFFFF (0000ms, 0695ms total)
T0DC4 013:765 JLINK_ReadReg(R12)  returns 0xFFFFFFFF (0000ms, 0696ms total)
T0DC4 013:765 JLINK_ReadReg(R13 (SP))  returns 0x20000430 (0000ms, 0696ms total)
T0DC4 013:765 JLINK_ReadReg(R14)  returns 0x08002011 (0000ms, 0696ms total)
T0DC4 013:765 JLINK_ReadReg(R15 (PC))  returns 0x080001CC (0000ms, 0696ms total)
T0DC4 013:765 JLINK_ReadReg(XPSR)  returns 0x61000000 (0000ms, 0696ms total)
T0DC4 013:765 JLINK_ReadReg(MSP)  returns 0x20000430 (0000ms, 0696ms total)
T0DC4 013:765 JLINK_ReadReg(PSP)  returns 0xFFFFFFFC (0000ms, 0696ms total)
T0DC4 013:765 JLINK_ReadReg(CFBP)  returns 0x00000000 (0000ms, 0696ms total)
T301C 013:783 JLINK_ReadMem (0x080001C8, 0x003C Bytes, ...) -- Read from DA cache (60 bytes @ 0x080001C8) - Data: 10 BD 88 B0 FF F7 CE FF 00 F0 8E F9 E1 20 40 02 ...  returns 0x00 (0000ms, 0696ms total)
T0DC4 014:827 JLINK_SetBPEx(Addr = 0x080001D0, Type = 0xFFFFFFF2)  returns 0x00000002 (0001ms, 0697ms total)
T0DC4 014:828 JLINK_Go() -- CPU_WriteMem(4 bytes @ 0xE0002000) -- CPU_ReadMem(4 bytes @ 0xE0001000) -- CPU_WriteMem(4 bytes @ 0xE0001000) -- CPU_WriteMem(4 bytes @ 0xE0002008) -- CPU_WriteMem(4 bytes @ 0xE0001004) (0006ms, 0703ms total)
T0DC4 014:935 JLINK_IsHalted()  returns TRUE (0002ms, 0705ms total)
T0DC4 014:937 JLINK_Halt()  returns 0x00 (0001ms, 0704ms total)
T0DC4 014:938 JLINK_IsHalted()  returns TRUE (0000ms, 0704ms total)
T0DC4 014:938 JLINK_IsHalted()  returns TRUE (0000ms, 0704ms total)
T0DC4 014:938 JLINK_IsHalted()  returns TRUE (0000ms, 0704ms total)
T0DC4 014:938 JLINK_ReadReg(R15 (PC))  returns 0x080001D0 (0000ms, 0704ms total)
T0DC4 014:938 JLINK_ReadReg(XPSR)  returns 0x01000000 (0000ms, 0704ms total)
T0DC4 014:938 JLINK_ClrBPEx(BPHandle = 0x00000002)  returns 0x00 (0000ms, 0704ms total)
T0DC4 014:938 JLINK_ReadMemU32(0xE000ED30, 0x0001 Items, ...) -- CPU_ReadMem(4 bytes @ 0xE000ED30) - Data: 03 00 00 00  returns 0x01 (0001ms, 0705ms total)
T0DC4 014:939 JLINK_ReadMemU32(0xE0001028, 0x0001 Items, ...) -- CPU_ReadMem(4 bytes @ 0xE0001028) - Data: 00 00 00 00  returns 0x01 (0000ms, 0705ms total)
T0DC4 014:939 JLINK_ReadMemU32(0xE0001038, 0x0001 Items, ...) -- CPU_ReadMem(4 bytes @ 0xE0001038) - Data: 00 00 00 00  returns 0x01 (0001ms, 0706ms total)
T0DC4 014:940 JLINK_ReadReg(R0)  returns 0x001C000A (0000ms, 0706ms total)
T0DC4 014:940 JLINK_ReadReg(R1)  returns 0x00000000 (0000ms, 0706ms total)
T0DC4 014:940 JLINK_ReadReg(R2)  returns 0x40021000 (0000ms, 0706ms total)
T0DC4 014:940 JLINK_ReadReg(R3)  returns 0x00000700 (0000ms, 0706ms total)
T0DC4 014:940 JLINK_ReadReg(R4)  returns 0x08002A5C (0000ms, 0706ms total)
T0DC4 014:940 JLINK_ReadReg(R5)  returns 0x00000001 (0000ms, 0706ms total)
T0DC4 014:940 JLINK_ReadReg(R6)  returns 0x08002A5C (0000ms, 0706ms total)
T0DC4 014:940 JLINK_ReadReg(R7)  returns 0xFFFFFFFF (0001ms, 0707ms total)
T0DC4 014:941 JLINK_ReadReg(R8)  returns 0xFFFFFFFF (0000ms, 0707ms total)
T0DC4 014:941 JLINK_ReadReg(R9)  returns 0xFFFFFFFF (0000ms, 0707ms total)
T0DC4 014:941 JLINK_ReadReg(R10)  returns 0xFFFFFFFF (0000ms, 0707ms total)
T0DC4 014:941 JLINK_ReadReg(R11)  returns 0xFFFFFFFF (0000ms, 0707ms total)
T0DC4 014:941 JLINK_ReadReg(R12)  returns 0xFFFFFFFF (0000ms, 0707ms total)
T0DC4 014:941 JLINK_ReadReg(R13 (SP))  returns 0x20000430 (0000ms, 0707ms total)
T0DC4 014:941 JLINK_ReadReg(R14)  returns 0x080001C9 (0000ms, 0707ms total)
T0DC4 014:941 JLINK_ReadReg(R15 (PC))  returns 0x080001D0 (0000ms, 0707ms total)
T0DC4 014:941 JLINK_ReadReg(XPSR)  returns 0x01000000 (0000ms, 0707ms total)
T0DC4 014:941 JLINK_ReadReg(MSP)  returns 0x20000430 (0000ms, 0707ms total)
T0DC4 014:941 JLINK_ReadReg(PSP)  returns 0xFFFFFFFC (0000ms, 0707ms total)
T0DC4 014:941 JLINK_ReadReg(CFBP)  returns 0x00000000 (0000ms, 0707ms total)
T301C 014:964 JLINK_ReadMem (0x080001D0, 0x003C Bytes, ...) -- CPU_ReadMem(128 bytes @ 0x080001C0) -- Updating DA cache (128 bytes @ 0x080001C0) -- Read from DA cache (60 bytes @ 0x080001D0) - Data: 00 F0 8E F9 E1 20 40 02 FF F7 7C FF 34 48 00 F0 ...  returns 0x00 (0002ms, 0709ms total)
T0DC4 015:753 JLINK_SetBPEx(Addr = 0x080001D4, Type = 0xFFFFFFF2)  returns 0x00000003 (0000ms, 0709ms total)
T0DC4 015:753 JLINK_Go() -- CPU_WriteMem(4 bytes @ 0xE0002000) -- CPU_ReadMem(4 bytes @ 0xE0001000) -- CPU_WriteMem(4 bytes @ 0xE0001000) -- CPU_WriteMem(4 bytes @ 0xE0002008) (0005ms, 0714ms total)
T0DC4 015:859 JLINK_IsHalted()  returns TRUE (0003ms, 0717ms total)
T0DC4 015:862 JLINK_Halt()  returns 0x00 (0000ms, 0714ms total)
T0DC4 015:862 JLINK_IsHalted()  returns TRUE (0000ms, 0714ms total)
T0DC4 015:862 JLINK_IsHalted()  returns TRUE (0000ms, 0714ms total)
T0DC4 015:862 JLINK_IsHalted()  returns TRUE (0000ms, 0714ms total)
T0DC4 015:862 JLINK_ReadReg(R15 (PC))  returns 0x080001D4 (0000ms, 0714ms total)
T0DC4 015:862 JLINK_ReadReg(XPSR)  returns 0x01000000 (0000ms, 0714ms total)
T0DC4 015:862 JLINK_ClrBPEx(BPHandle = 0x00000003)  returns 0x00 (0000ms, 0714ms total)
T0DC4 015:862 JLINK_ReadMemU32(0xE000ED30, 0x0001 Items, ...) -- CPU_ReadMem(4 bytes @ 0xE000ED30) - Data: 03 00 00 00  returns 0x01 (0001ms, 0715ms total)
T0DC4 015:863 JLINK_ReadMemU32(0xE0001028, 0x0001 Items, ...) -- CPU_ReadMem(4 bytes @ 0xE0001028) - Data: 00 00 00 00  returns 0x01 (0001ms, 0716ms total)
T0DC4 015:864 JLINK_ReadMemU32(0xE0001038, 0x0001 Items, ...) -- CPU_ReadMem(4 bytes @ 0xE0001038) - Data: 00 00 00 00  returns 0x01 (0001ms, 0717ms total)
T0DC4 015:865 JLINK_ReadReg(R0)  returns 0x00002328 (0000ms, 0717ms total)
T0DC4 015:865 JLINK_ReadReg(R1)  returns 0x2000001A (0000ms, 0717ms total)
T0DC4 015:865 JLINK_ReadReg(R2)  returns 0xFFFFFFFF (0000ms, 0717ms total)
T0DC4 015:865 JLINK_ReadReg(R3)  returns 0x007A1200 (0000ms, 0717ms total)
T0DC4 015:865 JLINK_ReadReg(R4)  returns 0x08002A5C (0000ms, 0717ms total)
T0DC4 015:865 JLINK_ReadReg(R5)  returns 0x00000001 (0000ms, 0717ms total)
T0DC4 015:865 JLINK_ReadReg(R6)  returns 0x08002A5C (0000ms, 0717ms total)
T0DC4 015:865 JLINK_ReadReg(R7)  returns 0xFFFFFFFF (0000ms, 0717ms total)
T0DC4 015:865 JLINK_ReadReg(R8)  returns 0xFFFFFFFF (0000ms, 0717ms total)
T0DC4 015:865 JLINK_ReadReg(R9)  returns 0xFFFFFFFF (0000ms, 0717ms total)
T0DC4 015:865 JLINK_ReadReg(R10)  returns 0xFFFFFFFF (0000ms, 0717ms total)
T0DC4 015:865 JLINK_ReadReg(R11)  returns 0xFFFFFFFF (0000ms, 0717ms total)
T0DC4 015:865 JLINK_ReadReg(R12)  returns 0xFFFFFFFF (0000ms, 0717ms total)
T0DC4 015:865 JLINK_ReadReg(R13 (SP))  returns 0x20000430 (0000ms, 0717ms total)
T0DC4 015:865 JLINK_ReadReg(R14)  returns 0x08000505 (0000ms, 0717ms total)
T0DC4 015:865 JLINK_ReadReg(R15 (PC))  returns 0x080001D4 (0000ms, 0717ms total)
T0DC4 015:865 JLINK_ReadReg(XPSR)  returns 0x01000000 (0000ms, 0717ms total)
T0DC4 015:865 JLINK_ReadReg(MSP)  returns 0x20000430 (0000ms, 0717ms total)
T0DC4 015:865 JLINK_ReadReg(PSP)  returns 0xFFFFFFFC (0000ms, 0717ms total)
T0DC4 015:866 JLINK_ReadReg(CFBP)  returns 0x00000000 (0000ms, 0717ms total)
T301C 015:881 JLINK_ReadMem (0x080001D0, 0x003C Bytes, ...) -- CPU_ReadMem(128 bytes @ 0x080001C0) -- Updating DA cache (128 bytes @ 0x080001C0) -- Read from DA cache (60 bytes @ 0x080001D0) - Data: 00 F0 8E F9 E1 20 40 02 FF F7 7C FF 34 48 00 F0 ...  returns 0x00 (0002ms, 0719ms total)
T0DC4 016:451 JLINK_Step() -- Read from DA cache (2 bytes @ 0x080001D4) -- CPU_ReadMem(4 bytes @ 0xE0001004) -- Simulated  returns 0x00 (0005ms, 0724ms total)
T0DC4 016:456 JLINK_ReadReg(R15 (PC))  returns 0x080001D6 (0000ms, 0724ms total)
T0DC4 016:456 JLINK_ReadReg(XPSR)  returns 0x01000000 (0000ms, 0724ms total)
T0DC4 016:456 JLINK_Step() -- Read from DA cache (2 bytes @ 0x080001D6) -- Simulated  returns 0x00 (0000ms, 0724ms total)
T0DC4 016:456 JLINK_ReadReg(R15 (PC))  returns 0x080001D8 (0000ms, 0724ms total)
T0DC4 016:456 JLINK_ReadReg(XPSR)  returns 0x01000000 (0000ms, 0724ms total)
T0DC4 016:456 JLINK_SetBPEx(Addr = 0x080001DC, Type = 0xFFFFFFF2)  returns 0x00000004 (0000ms, 0724ms total)
T0DC4 016:456 JLINK_Go() -- CPU_WriteMem(4 bytes @ 0xE0002000) -- CPU_ReadMem(4 bytes @ 0xE0001000) -- CPU_WriteMem(4 bytes @ 0xE0001000) -- CPU_WriteMem(4 bytes @ 0xE0002008) -- CPU_WriteMem(4 bytes @ 0xE0001004) (0005ms, 0729ms total)
T0DC4 016:562 JLINK_IsHalted()  returns TRUE (0003ms, 0732ms total)
T0DC4 016:565 JLINK_Halt()  returns 0x00 (0000ms, 0729ms total)
T0DC4 016:565 JLINK_IsHalted()  returns TRUE (0000ms, 0729ms total)
T0DC4 016:565 JLINK_IsHalted()  returns TRUE (0000ms, 0729ms total)
T0DC4 016:565 JLINK_IsHalted()  returns TRUE (0000ms, 0729ms total)
T0DC4 016:565 JLINK_ReadReg(R15 (PC))  returns 0x080001DC (0000ms, 0729ms total)
T0DC4 016:565 JLINK_ReadReg(XPSR)  returns 0x21000000 (0000ms, 0729ms total)
T0DC4 016:565 JLINK_ClrBPEx(BPHandle = 0x00000004)  returns 0x00 (0000ms, 0729ms total)
T0DC4 016:565 JLINK_ReadMemU32(0xE000ED30, 0x0001 Items, ...) -- CPU_ReadMem(4 bytes @ 0xE000ED30) - Data: 03 00 00 00  returns 0x01 (0001ms, 0730ms total)
T0DC4 016:566 JLINK_ReadMemU32(0xE0001028, 0x0001 Items, ...) -- CPU_ReadMem(4 bytes @ 0xE0001028) - Data: 00 00 00 00  returns 0x01 (0001ms, 0731ms total)
T0DC4 016:567 JLINK_ReadMemU32(0xE0001038, 0x0001 Items, ...) -- CPU_ReadMem(4 bytes @ 0xE0001038) - Data: 00 00 00 00  returns 0x01 (0000ms, 0731ms total)
T0DC4 016:568 JLINK_ReadReg(R0)  returns 0x40013800 (0000ms, 0731ms total)
T0DC4 016:568 JLINK_ReadReg(R1)  returns 0x00000001 (0000ms, 0731ms total)
T0DC4 016:568 JLINK_ReadReg(R2)  returns 0x0000002D (0000ms, 0731ms total)
T0DC4 016:568 JLINK_ReadReg(R3)  returns 0x00000001 (0000ms, 0731ms total)
T0DC4 016:568 JLINK_ReadReg(R4)  returns 0x08002A5C (0000ms, 0731ms total)
T0DC4 016:568 JLINK_ReadReg(R5)  returns 0x00000001 (0000ms, 0731ms total)
T0DC4 016:568 JLINK_ReadReg(R6)  returns 0x08002A5C (0000ms, 0731ms total)
T0DC4 016:568 JLINK_ReadReg(R7)  returns 0xFFFFFFFF (0000ms, 0731ms total)
T0DC4 016:568 JLINK_ReadReg(R8)  returns 0xFFFFFFFF (0000ms, 0731ms total)
T0DC4 016:568 JLINK_ReadReg(R9)  returns 0xFFFFFFFF (0000ms, 0731ms total)
T0DC4 016:568 JLINK_ReadReg(R10)  returns 0xFFFFFFFF (0000ms, 0731ms total)
T0DC4 016:568 JLINK_ReadReg(R11)  returns 0xFFFFFFFF (0000ms, 0731ms total)
T0DC4 016:568 JLINK_ReadReg(R12)  returns 0xFFFFFFFF (0000ms, 0731ms total)
T0DC4 016:568 JLINK_ReadReg(R13 (SP))  returns 0x20000430 (0000ms, 0731ms total)
T0DC4 016:568 JLINK_ReadReg(R14)  returns 0x08000169 (0000ms, 0731ms total)
T0DC4 016:568 JLINK_ReadReg(R15 (PC))  returns 0x080001DC (0000ms, 0731ms total)
T0DC4 016:568 JLINK_ReadReg(XPSR)  returns 0x21000000 (0000ms, 0731ms total)
T0DC4 016:568 JLINK_ReadReg(MSP)  returns 0x20000430 (0000ms, 0731ms total)
T0DC4 016:568 JLINK_ReadReg(PSP)  returns 0xFFFFFFFC (0000ms, 0731ms total)
T0DC4 016:568 JLINK_ReadReg(CFBP)  returns 0x00000000 (0000ms, 0731ms total)
T301C 016:579 JLINK_ReadMem (0x080001D4, 0x003C Bytes, ...) -- CPU_ReadMem(128 bytes @ 0x080001C0) -- Updating DA cache (128 bytes @ 0x080001C0) -- Read from DA cache (60 bytes @ 0x080001D4) - Data: E1 20 40 02 FF F7 7C FF 34 48 00 F0 83 FE 34 A0 ...  returns 0x00 (0002ms, 0733ms total)
T0DC4 017:136 JLINK_Step() -- Read from DA cache (2 bytes @ 0x080001DC) -- CPU_ReadMem(4 bytes @ 0xE0001004) -- Not simulated -- CPU_WriteMem(4 bytes @ 0xE0002008)  returns 0x00 (0006ms, 0739ms total)
T0DC4 017:142 JLINK_ReadReg(R15 (PC))  returns 0x080001DE (0000ms, 0739ms total)
T0DC4 017:142 JLINK_ReadReg(XPSR)  returns 0x21000000 (0000ms, 0739ms total)
T0DC4 017:142 JLINK_SetBPEx(Addr = 0x080001E2, Type = 0xFFFFFFF2)  returns 0x00000005 (0001ms, 0740ms total)
T0DC4 017:143 JLINK_Go() -- CPU_WriteMem(4 bytes @ 0xE0002000) -- CPU_ReadMem(4 bytes @ 0xE0001000) -- CPU_WriteMem(4 bytes @ 0xE0001000) -- CPU_WriteMem(4 bytes @ 0xE0002008) (0003ms, 0743ms total)
T0DC4 017:247 JLINK_IsHalted()  returns TRUE (0002ms, 0745ms total)
T0DC4 017:249 JLINK_Halt()  returns 0x00 (0001ms, 0744ms total)
T0DC4 017:250 JLINK_IsHalted()  returns TRUE (0000ms, 0744ms total)
T0DC4 017:250 JLINK_IsHalted()  returns TRUE (0000ms, 0744ms total)
T0DC4 017:250 JLINK_IsHalted()  returns TRUE (0000ms, 0744ms total)
T0DC4 017:250 JLINK_ReadReg(R15 (PC))  returns 0x080001E2 (0000ms, 0744ms total)
T0DC4 017:250 JLINK_ReadReg(XPSR)  returns 0x61000000 (0000ms, 0744ms total)
T0DC4 017:250 JLINK_ClrBPEx(BPHandle = 0x00000005)  returns 0x00 (0000ms, 0744ms total)
T0DC4 017:250 JLINK_ReadMemU32(0xE000ED30, 0x0001 Items, ...) -- CPU_ReadMem(4 bytes @ 0xE000ED30) - Data: 03 00 00 00  returns 0x01 (0001ms, 0745ms total)
T0DC4 017:251 JLINK_ReadMemU32(0xE0001028, 0x0001 Items, ...) -- CPU_ReadMem(4 bytes @ 0xE0001028) - Data: 00 00 00 00  returns 0x01 (0000ms, 0745ms total)
T0DC4 017:251 JLINK_ReadMemU32(0xE0001038, 0x0001 Items, ...) -- CPU_ReadMem(4 bytes @ 0xE0001038) - Data: 00 00 00 00  returns 0x01 (0001ms, 0746ms total)
T0DC4 017:252 JLINK_ReadReg(R0)  returns 0x02255100 (0000ms, 0746ms total)
T0DC4 017:252 JLINK_ReadReg(R1)  returns 0x00000000 (0000ms, 0746ms total)
T0DC4 017:252 JLINK_ReadReg(R2)  returns 0x00000000 (0000ms, 0746ms total)
T0DC4 017:252 JLINK_ReadReg(R3)  returns 0x00000001 (0000ms, 0746ms total)
T0DC4 017:252 JLINK_ReadReg(R4)  returns 0x08002A5C (0000ms, 0746ms total)
T0DC4 017:252 JLINK_ReadReg(R5)  returns 0x00000001 (0000ms, 0746ms total)
T0DC4 017:252 JLINK_ReadReg(R6)  returns 0x08002A5C (0000ms, 0746ms total)
T0DC4 017:252 JLINK_ReadReg(R7)  returns 0xFFFFFFFF (0001ms, 0747ms total)
T0DC4 017:253 JLINK_ReadReg(R8)  returns 0xFFFFFFFF (0000ms, 0747ms total)
T0DC4 017:253 JLINK_ReadReg(R9)  returns 0xFFFFFFFF (0000ms, 0747ms total)
T0DC4 017:253 JLINK_ReadReg(R10)  returns 0xFFFFFFFF (0000ms, 0747ms total)
T0DC4 017:253 JLINK_ReadReg(R11)  returns 0xFFFFFFFF (0000ms, 0747ms total)
T0DC4 017:253 JLINK_ReadReg(R12)  returns 0xFFFFFFFF (0000ms, 0747ms total)
T0DC4 017:253 JLINK_ReadReg(R13 (SP))  returns 0x20000430 (0000ms, 0747ms total)
T0DC4 017:253 JLINK_ReadReg(R14)  returns 0x080001E3 (0000ms, 0747ms total)
T0DC4 017:253 JLINK_ReadReg(R15 (PC))  returns 0x080001E2 (0000ms, 0747ms total)
T0DC4 017:253 JLINK_ReadReg(XPSR)  returns 0x61000000 (0000ms, 0747ms total)
T0DC4 017:253 JLINK_ReadReg(MSP)  returns 0x20000430 (0000ms, 0747ms total)
T0DC4 017:253 JLINK_ReadReg(PSP)  returns 0xFFFFFFFC (0000ms, 0747ms total)
T0DC4 017:253 JLINK_ReadReg(CFBP)  returns 0x00000000 (0000ms, 0747ms total)
T301C 017:275 JLINK_ReadMem (0x080001E2, 0x0002 Bytes, ...) -- CPU_ReadMem(64 bytes @ 0x080001C0) -- Updating DA cache (64 bytes @ 0x080001C0) -- Read from DA cache (2 bytes @ 0x080001E2) - Data: 34 A0  returns 0x00 (0001ms, 0748ms total)
T301C 017:276 JLINK_ReadMem (0x080001E4, 0x003C Bytes, ...) -- CPU_ReadMem(64 bytes @ 0x08000200) -- Updating DA cache (64 bytes @ 0x08000200) -- Read from DA cache (60 bytes @ 0x080001E4) - Data: 01 F0 AC FF 31 49 88 68 01 F0 B0 FC 07 46 31 49 ...  returns 0x00 (0001ms, 0749ms total)
T0DC4 017:840 JLINK_Step() -- Read from DA cache (2 bytes @ 0x080001E2) -- CPU_ReadMem(4 bytes @ 0xE0001004) -- Simulated  returns 0x00 (0002ms, 0751ms total)
T0DC4 017:842 JLINK_ReadReg(R15 (PC))  returns 0x080001E4 (0000ms, 0751ms total)
T0DC4 017:842 JLINK_ReadReg(XPSR)  returns 0x61000000 (0000ms, 0751ms total)
T0DC4 017:842 JLINK_SetBPEx(Addr = 0x080001E8, Type = 0xFFFFFFF2)  returns 0x00000006 (0000ms, 0751ms total)
T0DC4 017:842 JLINK_Go() -- CPU_WriteMem(4 bytes @ 0xE0002000) -- CPU_ReadMem(4 bytes @ 0xE0001000) -- CPU_WriteMem(4 bytes @ 0xE0001000) -- CPU_WriteMem(4 bytes @ 0xE0002008) -- CPU_WriteMem(4 bytes @ 0xE0001004) (0005ms, 0756ms total)
T0DC4 017:948 JLINK_IsHalted()  returns TRUE (0002ms, 0758ms total)
T0DC4 017:950 JLINK_Halt()  returns 0x00 (0001ms, 0757ms total)
T0DC4 017:951 JLINK_IsHalted()  returns TRUE (0000ms, 0757ms total)
T0DC4 017:951 JLINK_IsHalted()  returns TRUE (0000ms, 0757ms total)
T0DC4 017:951 JLINK_IsHalted()  returns TRUE (0000ms, 0757ms total)
T0DC4 017:951 JLINK_ReadReg(R15 (PC))  returns 0x080001E8 (0000ms, 0757ms total)
T0DC4 017:951 JLINK_ReadReg(XPSR)  returns 0x61000000 (0000ms, 0757ms total)
T0DC4 017:951 JLINK_ClrBPEx(BPHandle = 0x00000006)  returns 0x00 (0000ms, 0757ms total)
T0DC4 017:951 JLINK_ReadMemU32(0xE000ED30, 0x0001 Items, ...) -- CPU_ReadMem(4 bytes @ 0xE000ED30) - Data: 03 00 00 00  returns 0x01 (0001ms, 0758ms total)
T0DC4 017:952 JLINK_ReadMemU32(0xE0001028, 0x0001 Items, ...) -- CPU_ReadMem(4 bytes @ 0xE0001028) - Data: 00 00 00 00  returns 0x01 (0000ms, 0758ms total)
T0DC4 017:952 JLINK_ReadMemU32(0xE0001038, 0x0001 Items, ...) -- CPU_ReadMem(4 bytes @ 0xE0001038) - Data: 00 00 00 00  returns 0x01 (0001ms, 0759ms total)
T0DC4 017:953 JLINK_ReadReg(R0)  returns 0x00000001 (0000ms, 0759ms total)
T0DC4 017:953 JLINK_ReadReg(R1)  returns 0x0000000A (0000ms, 0759ms total)
T0DC4 017:953 JLINK_ReadReg(R2)  returns 0x0000000A (0000ms, 0759ms total)
T0DC4 017:953 JLINK_ReadReg(R3)  returns 0x080001E9 (0000ms, 0759ms total)
T0DC4 017:953 JLINK_ReadReg(R4)  returns 0x08002A5C (0000ms, 0759ms total)
T0DC4 017:953 JLINK_ReadReg(R5)  returns 0x00000001 (0000ms, 0759ms total)
T0DC4 017:953 JLINK_ReadReg(R6)  returns 0x08002A5C (0000ms, 0759ms total)
T0DC4 017:953 JLINK_ReadReg(R7)  returns 0xFFFFFFFF (0001ms, 0760ms total)
T0DC4 017:954 JLINK_ReadReg(R8)  returns 0xFFFFFFFF (0000ms, 0760ms total)
T0DC4 017:954 JLINK_ReadReg(R9)  returns 0xFFFFFFFF (0000ms, 0760ms total)
T0DC4 017:954 JLINK_ReadReg(R10)  returns 0xFFFFFFFF (0000ms, 0760ms total)
T0DC4 017:954 JLINK_ReadReg(R11)  returns 0xFFFFFFFF (0000ms, 0760ms total)
T0DC4 017:954 JLINK_ReadReg(R12)  returns 0xFFFFFFFF (0000ms, 0760ms total)
T0DC4 017:954 JLINK_ReadReg(R13 (SP))  returns 0x20000430 (0000ms, 0760ms total)
T0DC4 017:954 JLINK_ReadReg(R14)  returns 0x0800028B (0000ms, 0760ms total)
T0DC4 017:954 JLINK_ReadReg(R15 (PC))  returns 0x080001E8 (0000ms, 0760ms total)
T0DC4 017:954 JLINK_ReadReg(XPSR)  returns 0x61000000 (0000ms, 0760ms total)
T0DC4 017:954 JLINK_ReadReg(MSP)  returns 0x20000430 (0000ms, 0760ms total)
T0DC4 017:954 JLINK_ReadReg(PSP)  returns 0xFFFFFFFC (0000ms, 0760ms total)
T0DC4 017:954 JLINK_ReadReg(CFBP)  returns 0x00000000 (0000ms, 0760ms total)
T301C 017:963 JLINK_ReadMem (0x080001E2, 0x0002 Bytes, ...) -- CPU_ReadMem(64 bytes @ 0x080001C0) -- Updating DA cache (64 bytes @ 0x080001C0) -- Read from DA cache (2 bytes @ 0x080001E2) - Data: 34 A0  returns 0x00 (0001ms, 0761ms total)
T301C 017:964 JLINK_ReadMem (0x080001E4, 0x003C Bytes, ...) -- CPU_ReadMem(64 bytes @ 0x08000200) -- Updating DA cache (64 bytes @ 0x08000200) -- Read from DA cache (60 bytes @ 0x080001E4) - Data: 01 F0 AC FF 31 49 88 68 01 F0 B0 FC 07 46 31 49 ...  returns 0x00 (0001ms, 0762ms total)
T0DC4 018:576 JLINK_Step() -- Read from DA cache (2 bytes @ 0x080001E8) -- CPU_ReadMem(4 bytes @ 0xE0001004) -- Not simulated -- CPU_WriteMem(4 bytes @ 0xE0002008)  returns 0x00 (0007ms, 0769ms total)
T0DC4 018:583 JLINK_ReadReg(R15 (PC))  returns 0x080001EA (0001ms, 0770ms total)
T0DC4 018:584 JLINK_ReadReg(XPSR)  returns 0x61000000 (0000ms, 0770ms total)
T0DC4 018:584 JLINK_Step() -- CPU_ReadMem(64 bytes @ 0x080001C0) -- Updating DA cache (64 bytes @ 0x080001C0) -- Read from DA cache (2 bytes @ 0x080001EA) -- CPU_ReadMem(4 bytes @ 0xE0001004) -- Not simulated  returns 0x00 (0005ms, 0775ms total)
T0DC4 018:589 JLINK_ReadReg(R15 (PC))  returns 0x080001EC (0001ms, 0776ms total)
T0DC4 018:590 JLINK_ReadReg(XPSR)  returns 0x61000000 (0000ms, 0776ms total)
T0DC4 018:590 JLINK_SetBPEx(Addr = 0x080001F0, Type = 0xFFFFFFF2)  returns 0x00000007 (0000ms, 0776ms total)
T0DC4 018:590 JLINK_Go() -- CPU_WriteMem(4 bytes @ 0xE0002000) -- CPU_ReadMem(4 bytes @ 0xE0001000) -- CPU_WriteMem(4 bytes @ 0xE0001000) -- CPU_WriteMem(4 bytes @ 0xE0002008) (0003ms, 0779ms total)
T0DC4 018:694 JLINK_IsHalted()  returns TRUE (0003ms, 0782ms total)
T0DC4 018:697 JLINK_Halt()  returns 0x00 (0000ms, 0779ms total)
T0DC4 018:697 JLINK_IsHalted()  returns TRUE (0000ms, 0779ms total)
T0DC4 018:697 JLINK_IsHalted()  returns TRUE (0000ms, 0779ms total)
T0DC4 018:697 JLINK_IsHalted()  returns TRUE (0000ms, 0779ms total)
T0DC4 018:697 JLINK_ReadReg(R15 (PC))  returns 0x080001F0 (0000ms, 0779ms total)
T0DC4 018:697 JLINK_ReadReg(XPSR)  returns 0x61000000 (0000ms, 0779ms total)
T0DC4 018:697 JLINK_ClrBPEx(BPHandle = 0x00000007)  returns 0x00 (0000ms, 0779ms total)
T0DC4 018:697 JLINK_ReadMemU32(0xE000ED30, 0x0001 Items, ...) -- CPU_ReadMem(4 bytes @ 0xE000ED30) - Data: 03 00 00 00  returns 0x01 (0001ms, 0780ms total)
T0DC4 018:698 JLINK_ReadMemU32(0xE0001028, 0x0001 Items, ...) -- CPU_ReadMem(4 bytes @ 0xE0001028) - Data: 00 00 00 00  returns 0x01 (0000ms, 0780ms total)
T0DC4 018:698 JLINK_ReadMemU32(0xE0001038, 0x0001 Items, ...) -- CPU_ReadMem(4 bytes @ 0xE0001038) - Data: 00 00 00 00  returns 0x01 (0001ms, 0781ms total)
T0DC4 018:699 JLINK_ReadReg(R0)  returns 0x4C095440 (0000ms, 0781ms total)
T0DC4 018:699 JLINK_ReadReg(R1)  returns 0x00000000 (0000ms, 0781ms total)
T0DC4 018:699 JLINK_ReadReg(R2)  returns 0x00000000 (0000ms, 0781ms total)
T0DC4 018:699 JLINK_ReadReg(R3)  returns 0x4B800000 (0000ms, 0781ms total)
T0DC4 018:699 JLINK_ReadReg(R4)  returns 0x08002A5C (0000ms, 0781ms total)
T0DC4 018:699 JLINK_ReadReg(R5)  returns 0x00000001 (0000ms, 0781ms total)
T0DC4 018:699 JLINK_ReadReg(R6)  returns 0x08002A5C (0000ms, 0781ms total)
T0DC4 018:699 JLINK_ReadReg(R7)  returns 0xFFFFFFFF (0001ms, 0782ms total)
T0DC4 018:700 JLINK_ReadReg(R8)  returns 0xFFFFFFFF (0000ms, 0782ms total)
T0DC4 018:700 JLINK_ReadReg(R9)  returns 0xFFFFFFFF (0000ms, 0782ms total)
T0DC4 018:700 JLINK_ReadReg(R10)  returns 0xFFFFFFFF (0000ms, 0782ms total)
T0DC4 018:700 JLINK_ReadReg(R11)  returns 0xFFFFFFFF (0000ms, 0782ms total)
T0DC4 018:700 JLINK_ReadReg(R12)  returns 0xFFFFFFFF (0000ms, 0782ms total)
T0DC4 018:700 JLINK_ReadReg(R13 (SP))  returns 0x20000430 (0000ms, 0782ms total)
T0DC4 018:700 JLINK_ReadReg(R14)  returns 0x08001B5D (0000ms, 0782ms total)
T0DC4 018:700 JLINK_ReadReg(R15 (PC))  returns 0x080001F0 (0000ms, 0782ms total)
T0DC4 018:700 JLINK_ReadReg(XPSR)  returns 0x61000000 (0000ms, 0782ms total)
T0DC4 018:700 JLINK_ReadReg(MSP)  returns 0x20000430 (0000ms, 0782ms total)
T0DC4 018:700 JLINK_ReadReg(PSP)  returns 0xFFFFFFFC (0000ms, 0782ms total)
T0DC4 018:700 JLINK_ReadReg(CFBP)  returns 0x00000000 (0000ms, 0782ms total)
T301C 018:710 JLINK_ReadMem (0x080001F0, 0x003C Bytes, ...) -- CPU_ReadMem(128 bytes @ 0x080001C0) -- Updating DA cache (128 bytes @ 0x080001C0) -- Read from DA cache (60 bytes @ 0x080001F0) - Data: 07 46 31 49 01 F0 6E FC 04 46 01 F0 B0 FC 05 46 ...  returns 0x00 (0002ms, 0784ms total)
T0DC4 020:166 JLINK_Step() -- Read from DA cache (2 bytes @ 0x080001F0) -- CPU_ReadMem(4 bytes @ 0xE0001004) -- Simulated  returns 0x00 (0002ms, 0786ms total)
T0DC4 020:168 JLINK_ReadReg(R15 (PC))  returns 0x080001F2 (0000ms, 0786ms total)
T0DC4 020:168 JLINK_ReadReg(XPSR)  returns 0x61000000 (0000ms, 0786ms total)
T0DC4 020:168 JLINK_Step() -- Read from DA cache (2 bytes @ 0x080001F2) -- Not simulated -- CPU_WriteMem(4 bytes @ 0xE0002008) -- CPU_WriteMem(4 bytes @ 0xE0001004)  returns 0x00 (0006ms, 0792ms total)
T0DC4 020:174 JLINK_ReadReg(R15 (PC))  returns 0x080001F4 (0000ms, 0792ms total)
T0DC4 020:174 JLINK_ReadReg(XPSR)  returns 0x61000000 (0000ms, 0792ms total)
T0DC4 020:174 JLINK_SetBPEx(Addr = 0x080001F8, Type = 0xFFFFFFF2)  returns 0x00000008 (0000ms, 0792ms total)
T0DC4 020:174 JLINK_Go() -- CPU_WriteMem(4 bytes @ 0xE0002000) -- CPU_ReadMem(4 bytes @ 0xE0001000) -- CPU_WriteMem(4 bytes @ 0xE0001000) -- CPU_WriteMem(4 bytes @ 0xE0002008) (0003ms, 0795ms total)
T0DC4 020:278 JLINK_IsHalted()  returns TRUE (0003ms, 0798ms total)
T0DC4 020:281 JLINK_Halt()  returns 0x00 (0000ms, 0795ms total)
T0DC4 020:281 JLINK_IsHalted()  returns TRUE (0000ms, 0795ms total)
T0DC4 020:281 JLINK_IsHalted()  returns TRUE (0000ms, 0795ms total)
T0DC4 020:281 JLINK_IsHalted()  returns TRUE (0000ms, 0795ms total)
T0DC4 020:281 JLINK_ReadReg(R15 (PC))  returns 0x080001F8 (0000ms, 0795ms total)
T0DC4 020:281 JLINK_ReadReg(XPSR)  returns 0x61000000 (0000ms, 0795ms total)
T0DC4 020:281 JLINK_ClrBPEx(BPHandle = 0x00000008)  returns 0x00 (0000ms, 0795ms total)
T0DC4 020:281 JLINK_ReadMemU32(0xE000ED30, 0x0001 Items, ...) -- CPU_ReadMem(4 bytes @ 0xE000ED30) - Data: 03 00 00 00  returns 0x01 (0001ms, 0796ms total)
T0DC4 020:282 JLINK_ReadMemU32(0xE0001028, 0x0001 Items, ...) -- CPU_ReadMem(4 bytes @ 0xE0001028) - Data: 00 00 00 00  returns 0x01 (0000ms, 0796ms total)
T0DC4 020:282 JLINK_ReadMemU32(0xE0001038, 0x0001 Items, ...) -- CPU_ReadMem(4 bytes @ 0xE0001038) - Data: 00 00 00 00  returns 0x01 (0001ms, 0797ms total)
T0DC4 020:283 JLINK_ReadReg(R0)  returns 0x42100000 (0000ms, 0797ms total)
T0DC4 020:283 JLINK_ReadReg(R1)  returns 0x00000000 (0000ms, 0797ms total)
T0DC4 020:283 JLINK_ReadReg(R2)  returns 0x00F42400 (0000ms, 0797ms total)
T0DC4 020:283 JLINK_ReadReg(R3)  returns 0x00900000 (0000ms, 0797ms total)
T0DC4 020:283 JLINK_ReadReg(R4)  returns 0x08002A5C (0001ms, 0798ms total)
T0DC4 020:284 JLINK_ReadReg(R5)  returns 0x00000001 (0000ms, 0798ms total)
T0DC4 020:284 JLINK_ReadReg(R6)  returns 0x08002A5C (0000ms, 0798ms total)
T0DC4 020:284 JLINK_ReadReg(R7)  returns 0x4C095440 (0000ms, 0798ms total)
T0DC4 020:284 JLINK_ReadReg(R8)  returns 0xFFFFFFFF (0000ms, 0798ms total)
T0DC4 020:284 JLINK_ReadReg(R9)  returns 0xFFFFFFFF (0000ms, 0798ms total)
T0DC4 020:284 JLINK_ReadReg(R10)  returns 0xFFFFFFFF (0000ms, 0798ms total)
T0DC4 020:284 JLINK_ReadReg(R11)  returns 0xFFFFFFFF (0000ms, 0798ms total)
T0DC4 020:284 JLINK_ReadReg(R12)  returns 0xFFFFFFFF (0000ms, 0798ms total)
T0DC4 020:284 JLINK_ReadReg(R13 (SP))  returns 0x20000430 (0000ms, 0798ms total)
T0DC4 020:284 JLINK_ReadReg(R14)  returns 0x08001B4F (0000ms, 0798ms total)
T0DC4 020:284 JLINK_ReadReg(R15 (PC))  returns 0x080001F8 (0000ms, 0798ms total)
T0DC4 020:284 JLINK_ReadReg(XPSR)  returns 0x61000000 (0000ms, 0798ms total)
T0DC4 020:284 JLINK_ReadReg(MSP)  returns 0x20000430 (0000ms, 0798ms total)
T0DC4 020:284 JLINK_ReadReg(PSP)  returns 0xFFFFFFFC (0000ms, 0798ms total)
T0DC4 020:284 JLINK_ReadReg(CFBP)  returns 0x00000000 (0000ms, 0798ms total)
T0DC4 021:044 JLINK_ReadMem (0x080001F8, 0x003C Bytes, ...) -- CPU_ReadMem(128 bytes @ 0x080001C0) -- Updating DA cache (128 bytes @ 0x080001C0) -- Read from DA cache (60 bytes @ 0x080001F8) - Data: 04 46 01 F0 B0 FC 05 46 0E 46 2B 49 48 68 01 F0 ...  returns 0x00 (0003ms, 0801ms total)
T0DC4 021:047 JLINK_Step() -- Read from DA cache (2 bytes @ 0x080001F8) -- CPU_ReadMem(4 bytes @ 0xE0001004) -- Simulated  returns 0x00 (0001ms, 0802ms total)
T0DC4 021:048 JLINK_ReadReg(R15 (PC))  returns 0x080001FA (0001ms, 0803ms total)
T0DC4 021:049 JLINK_ReadReg(XPSR)  returns 0x61000000 (0000ms, 0803ms total)
T0DC4 021:049 JLINK_SetBPEx(Addr = 0x080001FE, Type = 0xFFFFFFF2)  returns 0x00000009 (0000ms, 0803ms total)
T0DC4 021:049 JLINK_Go() -- CPU_WriteMem(4 bytes @ 0xE0002000) -- CPU_ReadMem(4 bytes @ 0xE0001000) -- CPU_WriteMem(4 bytes @ 0xE0001000) -- CPU_WriteMem(4 bytes @ 0xE0002008) -- CPU_WriteMem(4 bytes @ 0xE0001004) (0004ms, 0807ms total)
T0DC4 021:154 JLINK_IsHalted()  returns TRUE (0002ms, 0809ms total)
T0DC4 021:156 JLINK_Halt()  returns 0x00 (0001ms, 0808ms total)
T0DC4 021:157 JLINK_IsHalted()  returns TRUE (0000ms, 0808ms total)
T0DC4 021:157 JLINK_IsHalted()  returns TRUE (0000ms, 0808ms total)
T0DC4 021:157 JLINK_IsHalted()  returns TRUE (0000ms, 0808ms total)
T0DC4 021:157 JLINK_ReadReg(R15 (PC))  returns 0x080001FE (0000ms, 0808ms total)
T0DC4 021:157 JLINK_ReadReg(XPSR)  returns 0x01000000 (0000ms, 0808ms total)
T0DC4 021:157 JLINK_ClrBPEx(BPHandle = 0x00000009)  returns 0x00 (0000ms, 0808ms total)
T0DC4 021:157 JLINK_ReadMemU32(0xE000ED30, 0x0001 Items, ...) -- CPU_ReadMem(4 bytes @ 0xE000ED30) - Data: 03 00 00 00  returns 0x01 (0001ms, 0809ms total)
T0DC4 021:158 JLINK_ReadMemU32(0xE0001028, 0x0001 Items, ...) -- CPU_ReadMem(4 bytes @ 0xE0001028) - Data: 00 00 00 00  returns 0x01 (0000ms, 0809ms total)
T0DC4 021:158 JLINK_ReadMemU32(0xE0001038, 0x0001 Items, ...) -- CPU_ReadMem(4 bytes @ 0xE0001038) - Data: 00 00 00 00  returns 0x01 (0001ms, 0810ms total)
T0DC4 021:159 JLINK_ReadReg(R0)  returns 0x00000000 (0000ms, 0810ms total)
T0DC4 021:159 JLINK_ReadReg(R1)  returns 0x40420000 (0000ms, 0810ms total)
T0DC4 021:159 JLINK_ReadReg(R2)  returns 0x00020000 (0000ms, 0810ms total)
T0DC4 021:159 JLINK_ReadReg(R3)  returns 0x00000380 (0000ms, 0810ms total)
T0DC4 021:159 JLINK_ReadReg(R4)  returns 0x42100000 (0000ms, 0810ms total)
T0DC4 021:159 JLINK_ReadReg(R5)  returns 0x00000001 (0000ms, 0810ms total)
T0DC4 021:159 JLINK_ReadReg(R6)  returns 0x08002A5C (0000ms, 0810ms total)
T0DC4 021:159 JLINK_ReadReg(R7)  returns 0x4C095440 (0001ms, 0811ms total)
T0DC4 021:160 JLINK_ReadReg(R8)  returns 0xFFFFFFFF (0000ms, 0811ms total)
T0DC4 021:160 JLINK_ReadReg(R9)  returns 0xFFFFFFFF (0000ms, 0811ms total)
T0DC4 021:160 JLINK_ReadReg(R10)  returns 0xFFFFFFFF (0000ms, 0811ms total)
T0DC4 021:160 JLINK_ReadReg(R11)  returns 0xFFFFFFFF (0000ms, 0811ms total)
T0DC4 021:160 JLINK_ReadReg(R12)  returns 0xFFFFFFFF (0000ms, 0811ms total)
T0DC4 021:160 JLINK_ReadReg(R13 (SP))  returns 0x20000430 (0000ms, 0811ms total)
T0DC4 021:160 JLINK_ReadReg(R14)  returns 0x080001FF (0000ms, 0811ms total)
T0DC4 021:160 JLINK_ReadReg(R15 (PC))  returns 0x080001FE (0000ms, 0811ms total)
T0DC4 021:160 JLINK_ReadReg(XPSR)  returns 0x01000000 (0000ms, 0811ms total)
T0DC4 021:160 JLINK_ReadReg(MSP)  returns 0x20000430 (0000ms, 0811ms total)
T0DC4 021:160 JLINK_ReadReg(PSP)  returns 0xFFFFFFFC (0000ms, 0811ms total)
T0DC4 021:160 JLINK_ReadReg(CFBP)  returns 0x00000000 (0000ms, 0811ms total)
T0DC4 023:435 JLINK_ReadMem (0x080001FE, 0x0002 Bytes, ...) -- CPU_ReadMem(64 bytes @ 0x080001C0) -- Updating DA cache (64 bytes @ 0x080001C0) -- Read from DA cache (2 bytes @ 0x080001FE) - Data: 05 46  returns 0x00 (0005ms, 0816ms total)
T0DC4 023:440 JLINK_ReadMem (0x08000200, 0x003C Bytes, ...) -- CPU_ReadMem(64 bytes @ 0x08000200) -- Updating DA cache (64 bytes @ 0x08000200) -- Read from DA cache (60 bytes @ 0x08000200) - Data: 0E 46 2B 49 48 68 01 F0 A3 FC 07 46 2A 49 01 F0 ...  returns 0x00 (0001ms, 0817ms total)
T0DC4 023:441 JLINK_Step() -- Read from DA cache (2 bytes @ 0x080001FE) -- CPU_ReadMem(4 bytes @ 0xE0001004) -- Simulated  returns 0x00 (0002ms, 0819ms total)
T0DC4 023:443 JLINK_ReadReg(R15 (PC))  returns 0x08000200 (0000ms, 0819ms total)
T0DC4 023:443 JLINK_ReadReg(XPSR)  returns 0x01000000 (0000ms, 0819ms total)
T0DC4 023:443 JLINK_Step() -- Read from DA cache (2 bytes @ 0x08000200) -- Simulated  returns 0x00 (0000ms, 0819ms total)
T0DC4 023:443 JLINK_ReadReg(R15 (PC))  returns 0x08000202 (0000ms, 0819ms total)
T0DC4 023:443 JLINK_ReadReg(XPSR)  returns 0x01000000 (0000ms, 0819ms total)
T0DC4 023:443 JLINK_Step() -- Read from DA cache (2 bytes @ 0x08000202) -- Not simulated -- CPU_WriteMem(4 bytes @ 0xE0002008) -- CPU_WriteMem(4 bytes @ 0xE0001004)  returns 0x00 (0006ms, 0825ms total)
T0DC4 023:449 JLINK_ReadReg(R15 (PC))  returns 0x08000204 (0000ms, 0825ms total)
T0DC4 023:449 JLINK_ReadReg(XPSR)  returns 0x01000000 (0000ms, 0825ms total)
T0DC4 023:449 JLINK_Step() -- CPU_ReadMem(64 bytes @ 0x08000200) -- Updating DA cache (64 bytes @ 0x08000200) -- Read from DA cache (2 bytes @ 0x08000204) -- CPU_ReadMem(4 bytes @ 0xE0001004) -- Not simulated  returns 0x00 (0006ms, 0831ms total)
T0DC4 023:455 JLINK_ReadReg(R15 (PC))  returns 0x08000206 (0000ms, 0831ms total)
T0DC4 023:455 JLINK_ReadReg(XPSR)  returns 0x01000000 (0000ms, 0831ms total)
T0DC4 023:455 JLINK_SetBPEx(Addr = 0x0800020A, Type = 0xFFFFFFF2)  returns 0x0000000A (0000ms, 0831ms total)
T0DC4 023:455 JLINK_Go() -- CPU_WriteMem(4 bytes @ 0xE0002000) -- CPU_ReadMem(4 bytes @ 0xE0001000) -- CPU_WriteMem(4 bytes @ 0xE0001000) -- CPU_WriteMem(4 bytes @ 0xE0002008) (0003ms, 0834ms total)
T0DC4 023:559 JLINK_IsHalted()  returns TRUE (0002ms, 0836ms total)
T0DC4 023:561 JLINK_Halt()  returns 0x00 (0001ms, 0835ms total)
T0DC4 023:562 JLINK_IsHalted()  returns TRUE (0000ms, 0835ms total)
T0DC4 023:562 JLINK_IsHalted()  returns TRUE (0000ms, 0835ms total)
T0DC4 023:562 JLINK_IsHalted()  returns TRUE (0000ms, 0835ms total)
T0DC4 023:562 JLINK_ReadReg(R15 (PC))  returns 0x0800020A (0000ms, 0835ms total)
T0DC4 023:562 JLINK_ReadReg(XPSR)  returns 0x61000000 (0000ms, 0835ms total)
T0DC4 023:562 JLINK_ClrBPEx(BPHandle = 0x0000000A)  returns 0x00 (0000ms, 0835ms total)
T0DC4 023:562 JLINK_ReadMemU32(0xE000ED30, 0x0001 Items, ...) -- CPU_ReadMem(4 bytes @ 0xE000ED30) - Data: 03 00 00 00  returns 0x01 (0001ms, 0836ms total)
T0DC4 023:563 JLINK_ReadMemU32(0xE0001028, 0x0001 Items, ...) -- CPU_ReadMem(4 bytes @ 0xE0001028) - Data: 00 00 00 00  returns 0x01 (0000ms, 0836ms total)
T0DC4 023:563 JLINK_ReadMemU32(0xE0001038, 0x0001 Items, ...) -- CPU_ReadMem(4 bytes @ 0xE0001038) - Data: 00 00 00 00  returns 0x01 (0001ms, 0837ms total)
T0DC4 023:564 JLINK_ReadReg(R0)  returns 0x4C095440 (0000ms, 0837ms total)
T0DC4 023:564 JLINK_ReadReg(R1)  returns 0x00000000 (0000ms, 0837ms total)
T0DC4 023:564 JLINK_ReadReg(R2)  returns 0x00000000 (0000ms, 0837ms total)
T0DC4 023:564 JLINK_ReadReg(R3)  returns 0x4B800000 (0000ms, 0837ms total)
T0DC4 023:564 JLINK_ReadReg(R4)  returns 0x42100000 (0000ms, 0837ms total)
T0DC4 023:564 JLINK_ReadReg(R5)  returns 0x00000000 (0001ms, 0838ms total)
T0DC4 023:565 JLINK_ReadReg(R6)  returns 0x40420000 (0000ms, 0838ms total)
T0DC4 023:565 JLINK_ReadReg(R7)  returns 0x4C095440 (0000ms, 0838ms total)
T0DC4 023:565 JLINK_ReadReg(R8)  returns 0xFFFFFFFF (0000ms, 0838ms total)
T0DC4 023:565 JLINK_ReadReg(R9)  returns 0xFFFFFFFF (0000ms, 0838ms total)
T0DC4 023:565 JLINK_ReadReg(R10)  returns 0xFFFFFFFF (0000ms, 0838ms total)
T0DC4 023:565 JLINK_ReadReg(R11)  returns 0xFFFFFFFF (0000ms, 0838ms total)
T0DC4 023:565 JLINK_ReadReg(R12)  returns 0xFFFFFFFF (0000ms, 0838ms total)
T0DC4 023:565 JLINK_ReadReg(R13 (SP))  returns 0x20000430 (0000ms, 0838ms total)
T0DC4 023:565 JLINK_ReadReg(R14)  returns 0x08001B5D (0000ms, 0838ms total)
T0DC4 023:565 JLINK_ReadReg(R15 (PC))  returns 0x0800020A (0000ms, 0838ms total)
T0DC4 023:565 JLINK_ReadReg(XPSR)  returns 0x61000000 (0000ms, 0838ms total)
T0DC4 023:565 JLINK_ReadReg(MSP)  returns 0x20000430 (0000ms, 0838ms total)
T0DC4 023:565 JLINK_ReadReg(PSP)  returns 0xFFFFFFFC (0000ms, 0838ms total)
T0DC4 023:565 JLINK_ReadReg(CFBP)  returns 0x00000000 (0000ms, 0838ms total)
T301C 023:575 JLINK_ReadMem (0x0800020A, 0x0002 Bytes, ...) -- CPU_ReadMem(64 bytes @ 0x08000200) -- Updating DA cache (64 bytes @ 0x08000200) -- Read from DA cache (2 bytes @ 0x0800020A) - Data: 07 46  returns 0x00 (0001ms, 0839ms total)
T301C 023:576 JLINK_ReadMem (0x0800020C, 0x003C Bytes, ...) -- CPU_ReadMem(64 bytes @ 0x08000240) -- Updating DA cache (64 bytes @ 0x08000240) -- Read from DA cache (60 bytes @ 0x0800020C) - Data: 2A 49 01 F0 61 FC 04 46 01 F0 A3 FC 07 91 06 90 ...  returns 0x00 (0002ms, 0841ms total)
T0DC4 024:272 JLINK_Step() -- Read from DA cache (2 bytes @ 0x0800020A) -- CPU_ReadMem(4 bytes @ 0xE0001004) -- Simulated  returns 0x00 (0002ms, 0843ms total)
T0DC4 024:274 JLINK_ReadReg(R15 (PC))  returns 0x0800020C (0000ms, 0843ms total)
T0DC4 024:274 JLINK_ReadReg(XPSR)  returns 0x61000000 (0000ms, 0843ms total)
T0DC4 024:274 JLINK_Step() -- Read from DA cache (2 bytes @ 0x0800020C) -- Not simulated -- CPU_WriteMem(4 bytes @ 0xE0002008) -- CPU_WriteMem(4 bytes @ 0xE0001004)  returns 0x00 (0005ms, 0848ms total)
T0DC4 024:279 JLINK_ReadReg(R15 (PC))  returns 0x0800020E (0000ms, 0848ms total)
T0DC4 024:279 JLINK_ReadReg(XPSR)  returns 0x61000000 (0001ms, 0849ms total)
T0DC4 024:280 JLINK_SetBPEx(Addr = 0x08000212, Type = 0xFFFFFFF2)  returns 0x0000000B (0000ms, 0849ms total)
T0DC4 024:280 JLINK_Go() -- CPU_WriteMem(4 bytes @ 0xE0002000) -- CPU_ReadMem(4 bytes @ 0xE0001000) -- CPU_WriteMem(4 bytes @ 0xE0001000) -- CPU_WriteMem(4 bytes @ 0xE0002008) (0003ms, 0852ms total)
T0DC4 024:384 JLINK_IsHalted()  returns TRUE (0002ms, 0854ms total)
T0DC4 024:386 JLINK_Halt()  returns 0x00 (0001ms, 0853ms total)
T0DC4 024:387 JLINK_IsHalted()  returns TRUE (0000ms, 0853ms total)
T0DC4 024:387 JLINK_IsHalted()  returns TRUE (0000ms, 0853ms total)
T0DC4 024:387 JLINK_IsHalted()  returns TRUE (0000ms, 0853ms total)
T0DC4 024:387 JLINK_ReadReg(R15 (PC))  returns 0x08000212 (0000ms, 0853ms total)
